!  2-Port S-parameters saved by WinCal
! VAR MeasName=S-Parameters (CALIBRATED_DATA) read from VNA (E8361A)
! VAR MeasDate=2015/02/20 18:50:00
! VAR NAME=20150220_TRL_LINE_600um_1
! VAR FILENAME=20150220_TRL_LINE_600um_1.S2P
! VAR DATE=2015/02/20 18:50:00
! VAR PHYS_PORTS=1,2
!
# Hz S MA R 50
10000000.000 +1.3509572306E-002 +1.9874719216E+001  +9.8549740826E-001 -2.6503108292E-001  +9.8821962978E-001 -1.5818149223E-001  +6.2872887922E-003 +1.2961561541E+001 
284975000.000 +1.3047021231E-002 +7.1694958854E+000  +9.8565850942E-001 -4.4094777651E-001  +9.8563012061E-001 -5.1977305421E-001  +1.2798733433E-002 +5.3297468617E+000 
559950000.000 +1.4067293743E-002 +9.4565691168E+000  +9.8513212483E-001 -9.9784981839E-001  +9.8535268824E-001 -1.0718990461E+000  +1.3760080729E-002 +8.1550237200E+000 
834925000.000 +1.4995370595E-002 +1.0180259696E+001  +9.8434591916E-001 -1.5038345478E+000  +9.8460746279E-001 -1.5421321088E+000  +1.4399342996E-002 +1.1236061071E+001 
1109900000.000 +1.5542357771E-002 +1.1281073627E+001  +9.8402246979E-001 -2.0698428723E+000  +9.8397312473E-001 -2.0049884441E+000  +1.5465337980E-002 +1.2044031835E+001 
1384875000.000 +1.6243411902E-002 +1.2503610514E+001  +9.8320366587E-001 -2.5530518516E+000  +9.8335903705E-001 -2.4904678145E+000  +1.6140161710E-002 +1.2943774931E+001 
1659850000.000 +1.7109581920E-002 +1.2555659212E+001  +9.8270603101E-001 -3.0223861154E+000  +9.8298035398E-001 -3.0252164143E+000  +1.7038610024E-002 +1.2531389417E+001 
1934825000.000 +1.7583432328E-002 +1.1558544679E+001  +9.8216701493E-001 -3.4842625683E+000  +9.8219763449E-001 -3.4723285076E+000  +1.7573458985E-002 +1.2256373908E+001 
2209800000.000 +1.8085911966E-002 +1.1307082611E+001  +9.8154341440E-001 -3.9378545896E+000  +9.8168089168E-001 -3.9940899963E+000  +1.8097151999E-002 +1.1495451326E+001 
2484775000.000 +1.8553512176E-002 +1.1171722641E+001  +9.8112578939E-001 -4.4314632077E+000  +9.8126565994E-001 -4.4861516748E+000  +1.8696559414E-002 +1.0819987107E+001 
2759750000.000 +1.9230977796E-002 +1.0576494460E+001  +9.8066231558E-001 -4.8925106164E+000  +9.8066305594E-001 -4.9073663530E+000  +1.9202727491E-002 +1.0613851089E+001 
3034725000.000 +1.9699535153E-002 +9.9883117104E+000  +9.8025324248E-001 -5.3618388672E+000  +9.8030705019E-001 -5.4085275613E+000  +1.9648346254E-002 +9.8130098572E+000 
3309700000.000 +2.0121958405E-002 +9.2878770717E+000  +9.7985937088E-001 -5.8272061533E+000  +9.7955937147E-001 -5.7951784620E+000  +1.9939440657E-002 +9.0469075757E+000 
3584675000.000 +2.0535903751E-002 +8.5217655992E+000  +9.7935317606E-001 -6.2828270367E+000  +9.7913350341E-001 -6.2921151423E+000  +2.0491399356E-002 +8.4549272922E+000 
3859650000.000 +2.1130031365E-002 +7.7311018757E+000  +9.7886852564E-001 -6.7445099548E+000  +9.7887985321E-001 -6.7856392014E+000  +2.0982038390E-002 +7.4383532185E+000 
4134625000.000 +2.1457120550E-002 +6.9350027816E+000  +9.7853561929E-001 -7.2053912877E+000  +9.7827796156E-001 -7.2057908956E+000  +2.1363404552E-002 +7.0243633220E+000 
4409600000.000 +2.1871868225E-002 +5.7679589110E+000  +9.7816699882E-001 -7.6575940465E+000  +9.7787696824E-001 -7.6624538792E+000  +2.1746406448E-002 +5.7655776191E+000 
4684575000.000 +2.2287216076E-002 +4.9685417975E+000  +9.7788674741E-001 -8.1354196844E+000  +9.7729795689E-001 -8.1126738840E+000  +2.2106353874E-002 +4.8817896401E+000 
4959550000.000 +2.2819559696E-002 +4.1934855157E+000  +9.7734271672E-001 -8.5831645234E+000  +9.7694093915E-001 -8.5766455484E+000  +2.2367074192E-002 +3.7727635586E+000 
5234525000.000 +2.2837307051E-002 +3.1250828159E+000  +9.7689778161E-001 -9.0267237651E+000  +9.7631134026E-001 -8.9381161922E+000  +2.2735135135E-002 +2.6860863882E+000 
5509500000.000 +2.3258352818E-002 +3.1323188627E+000  +9.7653962738E-001 -9.4896717297E+000  +9.7572097274E-001 -9.4196179783E+000  +2.2934030398E-002 +1.9984398912E+000 
5784475000.000 +2.3661840580E-002 +2.3569550660E+000  +9.7602283446E-001 -9.9401121755E+000  +9.7557226379E-001 -9.8134829552E+000  +2.3173990283E-002 +1.6913349505E+000 
6059450000.000 +2.4090699400E-002 +1.5459598428E+000  +9.7571472614E-001 -1.0399464080E+001  +9.7645062766E-001 -1.0149148144E+001  +2.3659096118E-002 +3.0882629664E-001 
6334425000.000 +2.3924587249E-002 +1.2610651944E+000  +9.7528573952E-001 -1.0842733457E+001  +9.7982215583E-001 -1.0616253745E+001  +2.4200196561E-002 -1.1355505771E+000 
6609400000.000 +2.5781265794E-002 +1.1092143582E+000  +9.7504603100E-001 -1.1295076976E+001  +9.8303717717E-001 -1.1299305878E+001  +2.4343413162E-002 -1.0829500195E+000 
6884375000.000 +2.4943056324E-002 -1.8162246094E+000  +9.7471597563E-001 -1.1747550506E+001  +9.8014703722E-001 -1.2022279589E+001  +2.4070805602E-002 -1.4724778747E+000 
7159350000.000 +2.5784523806E-002 -2.5632853783E+000  +9.7426855858E-001 -1.2190147122E+001  +9.7592672047E-001 -1.2568705045E+001  +2.5053696757E-002 -2.6312298459E+000 
7434325000.000 +2.5357029117E-002 -3.1068707186E+000  +9.7399227536E-001 -1.2647256964E+001  +9.7302145295E-001 -1.2858176052E+001  +2.4980707775E-002 -4.0578155859E+000 
7709300000.000 +2.6339722913E-002 -4.4536972148E+000  +9.7374203876E-001 -1.3096644898E+001  +9.7224086247E-001 -1.3264350215E+001  +2.5291801885E-002 -4.4734598588E+000 
7984275000.000 +2.5890622110E-002 -5.8038800931E+000  +9.7342063925E-001 -1.3552642363E+001  +9.7207194986E-001 -1.3667183345E+001  +2.5505472790E-002 -5.6711797667E+000 
8259250000.000 +2.6367801400E-002 -5.8124169988E+000  +9.7298467389E-001 -1.3999698879E+001  +9.7206292780E-001 -1.4115208943E+001  +2.6075756864E-002 -6.8621538710E+000 
8534225000.000 +2.6675134016E-002 -7.4043593981E+000  +9.7258918428E-001 -1.4451679570E+001  +9.7171678058E-001 -1.4477169793E+001  +2.5942064756E-002 -7.1104673048E+000 
8809200000.000 +2.6907685444E-002 -8.1853190998E+000  +9.7230691729E-001 -1.4901140471E+001  +9.7159726730E-001 -1.4953789273E+001  +2.6216468905E-002 -8.3459665136E+000 
9084175000.000 +2.7138228730E-002 -9.1286049597E+000  +9.7197411226E-001 -1.5346478341E+001  +9.7133935416E-001 -1.5389319578E+001  +2.6516378998E-002 -8.9168614398E+000 
9359150000.000 +2.7343679680E-002 -1.0049610758E+001  +9.7154733246E-001 -1.5795520368E+001  +9.7119085540E-001 -1.5861593329E+001  +2.6657733943E-002 -9.6699296605E+000 
9634125000.000 +2.7687353697E-002 -1.0789525651E+001  +9.7145762451E-001 -1.6225318108E+001  +9.7091526346E-001 -1.6276915159E+001  +2.7064093818E-002 -1.0808368550E+001 
9909100000.000 +2.7902080279E-002 -1.1701826162E+001  +9.7102702252E-001 -1.6656151559E+001  +9.7066194448E-001 -1.6725462664E+001  +2.7165774273E-002 -1.1785509054E+001 
10184075000.000 +2.8293014802E-002 -1.2830676331E+001  +9.7091526820E-001 -1.7164517924E+001  +9.7057609508E-001 -1.7162443961E+001  +2.7270519274E-002 -1.2662902510E+001 
10459050000.000 +2.8465124146E-002 -1.3547274247E+001  +9.7031910390E-001 -1.7564536124E+001  +9.6994352082E-001 -1.7608020564E+001  +2.7582449119E-002 -1.3572808170E+001 
10734025000.000 +2.8684758481E-002 -1.3995312673E+001  +9.6993896164E-001 -1.8002748609E+001  +9.6968429597E-001 -1.8008725597E+001  +2.7692632212E-002 -1.4369968094E+001 
11009000000.000 +2.8829659329E-002 -1.5119705316E+001  +9.6969107971E-001 -1.8477776270E+001  +9.6959021470E-001 -1.8495849101E+001  +2.7836932692E-002 -1.5252822297E+001 
11283975000.000 +2.9115664460E-002 -1.5763577186E+001  +9.6961484725E-001 -1.8899713603E+001  +9.6938200205E-001 -1.8976524969E+001  +2.8042776253E-002 -1.5956867513E+001 
11558950000.000 +2.9300481171E-002 -1.6654532585E+001  +9.6929378957E-001 -1.9342982688E+001  +9.6900414179E-001 -1.9419403860E+001  +2.8253943965E-002 -1.7038466438E+001 
11833925000.000 +2.9327793333E-002 -1.7483734290E+001  +9.6887020829E-001 -1.9770529905E+001  +9.6868089904E-001 -1.9823462563E+001  +2.8223086313E-002 -1.7777712001E+001 
12108900000.000 +2.9704029758E-002 -1.8314606683E+001  +9.6885536541E-001 -2.0281940664E+001  +9.6851366783E-001 -2.0220815753E+001  +2.8379835530E-002 -1.8349172979E+001 
12383875000.000 +2.9769411078E-002 -1.9085359510E+001  +9.6829707478E-001 -2.0668179365E+001  +9.6833743287E-001 -2.0714368599E+001  +2.8550243164E-002 -1.9387398945E+001 
12658850000.000 +2.9825645836E-002 -1.9534800619E+001  +9.6782821398E-001 -2.1137044268E+001  +9.6824632705E-001 -2.1156234685E+001  +2.8763536646E-002 -1.9906529775E+001 
12933825000.000 +3.0116336545E-002 -2.0430645066E+001  +9.6726271734E-001 -2.1616366575E+001  +9.6809133405E-001 -2.1588888064E+001  +2.8795545603E-002 -2.0839425619E+001 
13208800000.000 +3.0417975551E-002 -2.0602650787E+001  +9.6563242667E-001 -2.1997921202E+001  +9.6768680718E-001 -2.2040539082E+001  +2.8896099343E-002 -2.2793510123E+001 
13483775000.000 +3.0769345539E-002 -1.9869685470E+001  +9.6657880702E-001 -2.2082346059E+001  +9.6768631160E-001 -2.2486820009E+001  +2.7137313221E-002 -1.8894900997E+001 
13758750000.000 +3.0433937987E-002 -2.2116792483E+001  +9.7056376007E-001 -2.2877135069E+001  +9.6735581073E-001 -2.2943463576E+001  +2.9423576637E-002 -2.3319720442E+001 
14033725000.000 +3.0775062702E-002 -2.3351810607E+001  +9.6856001056E-001 -2.3323952858E+001  +9.6690079226E-001 -2.3351153011E+001  +2.9448110635E-002 -2.2114943846E+001 
14308700000.000 +3.1242393477E-002 -2.3664466757E+001  +9.6745058804E-001 -2.3792983676E+001  +9.6686679532E-001 -2.3846255408E+001  +3.0027114184E-002 -2.4231664818E+001 
14583675000.000 +3.1174441297E-002 -2.4784722089E+001  +9.6675204548E-001 -2.4202957424E+001  +9.6644567268E-001 -2.4289563032E+001  +2.9698892161E-002 -2.5017378563E+001 
14858650000.000 +3.1397415568E-002 -2.5343583939E+001  +9.6670348512E-001 -2.4726984851E+001  +9.6627505311E-001 -2.4732925312E+001  +2.9972372426E-002 -2.5919431046E+001 
15133625000.000 +3.1533137394E-002 -2.5702231515E+001  +9.6627571053E-001 -2.5155513105E+001  +9.6612119176E-001 -2.5174927436E+001  +2.9952600241E-002 -2.6590958770E+001 
15408600000.000 +3.1721039241E-002 -2.6379788254E+001  +9.6591330927E-001 -2.5579382673E+001  +9.6614766098E-001 -2.5609439764E+001  +3.0058946369E-002 -2.7357753759E+001 
15683575000.000 +3.1898700517E-002 -2.7000879633E+001  +9.6580488377E-001 -2.5992769632E+001  +9.6596017329E-001 -2.6068656403E+001  +3.0073612309E-002 -2.7829103354E+001 
15958550000.000 +3.2019187553E-002 -2.7436514969E+001  +9.6549108544E-001 -2.6396795846E+001  +9.6550503640E-001 -2.6507856495E+001  +2.9992719541E-002 -2.8681465792E+001 
16233525000.000 +3.2177540968E-002 -2.7850559928E+001  +9.6519381543E-001 -2.6884869989E+001  +9.6548050576E-001 -2.6945928580E+001  +3.0178054563E-002 -2.8778169905E+001 
16508500000.000 +3.2283199557E-002 -2.8278054866E+001  +9.6506750337E-001 -2.7312722555E+001  +9.6527115870E-001 -2.7396155389E+001  +3.0514951206E-002 -2.9387482942E+001 
16783475000.000 +3.2553449975E-002 -2.8975646610E+001  +9.6494765118E-001 -2.7769387710E+001  +9.6506707082E-001 -2.7840977095E+001  +3.0653570857E-002 -2.9999172775E+001 
17058450000.000 +3.2723006968E-002 -2.9626410274E+001  +9.6495476058E-001 -2.8266425370E+001  +9.6460602547E-001 -2.8276552687E+001  +3.0657415485E-002 -3.0346525599E+001 
17333425000.000 +3.2874566861E-002 -3.0149911235E+001  +9.6445015770E-001 -2.8680215268E+001  +9.6449000758E-001 -2.8737883933E+001  +3.0793164660E-002 -3.1091822594E+001 
17608400000.000 +3.3214599867E-002 -3.0680420880E+001  +9.6447379421E-001 -2.9158949779E+001  +9.6415852925E-001 -2.9177068253E+001  +3.1111596319E-002 -3.1563413781E+001 
17883375000.000 +3.3358832632E-002 -3.1259640283E+001  +9.6406116346E-001 -2.9508670174E+001  +9.6403486961E-001 -2.9618423397E+001  +3.1051724974E-002 -3.2334072027E+001 
18158350000.000 +3.3572366371E-002 -3.1968004789E+001  +9.6378004594E-001 -2.9991598221E+001  +9.6388545538E-001 -3.0075339785E+001  +3.1028819121E-002 -3.2802577070E+001 
18433325000.000 +3.3624645712E-002 -3.2913173608E+001  +9.6349755145E-001 -3.0436575417E+001  +9.6355130733E-001 -3.0513459428E+001  +3.0917558515E-002 -3.3820206553E+001 
18708300000.000 +3.3615070383E-002 -3.3171002135E+001  +9.6331124521E-001 -3.0862557407E+001  +9.6351126703E-001 -3.0961748757E+001  +3.1033157917E-002 -3.4267150056E+001 
18983275000.000 +3.3734469550E-002 -3.3736036407E+001  +9.6316980646E-001 -3.1335098736E+001  +9.6332195000E-001 -3.1405802646E+001  +3.1114703943E-002 -3.4729550838E+001 
19258250000.000 +3.4019661611E-002 -3.4385935547E+001  +9.6280702728E-001 -3.1758167447E+001  +9.6288410305E-001 -3.1840279399E+001  +3.1263640704E-002 -3.5795824632E+001 
19533225000.000 +3.4020057220E-002 -3.4625932775E+001  +9.6275956640E-001 -3.2200611225E+001  +9.6269539839E-001 -3.2278833215E+001  +3.1205104251E-002 -3.5934496221E+001 
19808200000.000 +3.4141676229E-002 -3.5178111437E+001  +9.6253208599E-001 -3.2657617432E+001  +9.6252492368E-001 -3.2728900518E+001  +3.1405951084E-002 -3.6642323173E+001 
20083175000.000 +3.4140444500E-002 -3.5076146910E+001  +9.6241924559E-001 -3.3033369814E+001  +9.6244712149E-001 -3.3173938422E+001  +3.1366262713E-002 -3.6438523871E+001 
20358150000.000 +3.4644951642E-002 -3.5537742249E+001  +9.6214292933E-001 -3.3499707011E+001  +9.6216935437E-001 -3.3617482431E+001  +3.1492994076E-002 -3.7052271364E+001 
20633125000.000 +3.4481637735E-002 -3.6551801201E+001  +9.6203832562E-001 -3.3976585185E+001  +9.6195677023E-001 -3.4060362974E+001  +3.1227298755E-002 -3.8337883755E+001 
20908100000.000 +3.4621549241E-002 -3.6179209685E+001  +9.6179336652E-001 -3.4389728229E+001  +9.6165234666E-001 -3.4502806262E+001  +3.1219382155E-002 -3.7580755990E+001 
21183075000.000 +3.5026601159E-002 -3.6759182030E+001  +9.6163969694E-001 -3.4852578588E+001  +9.6156892297E-001 -3.4954475363E+001  +3.1338405159E-002 -3.8184205375E+001 
21458050000.000 +3.5037598291E-002 -3.7366006774E+001  +9.6145340512E-001 -3.5321985944E+001  +9.6132246163E-001 -3.5393532764E+001  +3.1352348937E-002 -3.9012965571E+001 
21733025000.000 +3.5153235368E-002 -3.7493475914E+001  +9.6130224111E-001 -3.5805418602E+001  +9.6124320470E-001 -3.5841346135E+001  +3.1262790849E-002 -3.9099871907E+001 
22008000000.000 +3.5618330126E-002 -3.8650891717E+001  +9.6105180158E-001 -3.6258540309E+001  +9.6076311247E-001 -3.6291730075E+001  +3.1090590115E-002 -3.9614896304E+001 
22282975000.000 +3.5565696487E-002 -3.9257012231E+001  +9.6073261019E-001 -3.6724191969E+001  +9.6071435943E-001 -3.6731940702E+001  +3.1374642961E-002 -3.9690198467E+001 
22557950000.000 +3.5581253021E-002 -3.9730528286E+001  +9.6048894187E-001 -3.7067509312E+001  +9.6032296058E-001 -3.7177732511E+001  +3.1570221036E-002 -4.0410265324E+001 
22832925000.000 +3.5656122564E-002 -3.9549847329E+001  +9.6006382989E-001 -3.7562569174E+001  +9.6011800465E-001 -3.7631955315E+001  +3.1444084347E-002 -4.0538965725E+001 
23107900000.000 +3.5654168621E-002 -4.0236073739E+001  +9.5996023384E-001 -3.8005199246E+001  +9.5982501279E-001 -3.8072759653E+001  +3.1582592927E-002 -4.0813258819E+001 
23382875000.000 +3.5673602581E-002 -4.0377856078E+001  +9.5970735667E-001 -3.8440129641E+001  +9.5938014530E-001 -3.8510788836E+001  +3.1556582384E-002 -4.0920118500E+001 
23657850000.000 +3.5621903689E-002 -4.1080055117E+001  +9.5961313428E-001 -3.8920346944E+001  +9.5924336680E-001 -3.8949366307E+001  +3.1970585154E-002 -4.0687688596E+001 
23932825000.000 +3.5573674452E-002 -4.2143535361E+001  +9.5915551414E-001 -3.9235613237E+001  +9.5905945805E-001 -3.9382571156E+001  +3.1962596174E-002 -4.2318908231E+001 
24207800000.000 +3.6606019800E-002 -4.1847359801E+001  +9.5946859813E-001 -3.9831777357E+001  +9.5958851562E-001 -3.9871975798E+001  +3.2125727839E-002 -4.2209015296E+001 
24482775000.000 +3.6287486057E-002 -4.1304612987E+001  +9.6062621759E-001 -4.0174181765E+001  +9.5906018953E-001 -4.0304970915E+001  +3.2228326335E-002 -4.2981917826E+001 
24757750000.000 +3.6171548810E-002 -4.2096441916E+001  +9.5972838542E-001 -4.0628186958E+001  +9.5836344373E-001 -4.0751368941E+001  +3.1588098408E-002 -4.2785918645E+001 
25032725000.000 +3.6147757899E-002 -4.2767485057E+001  +9.5839348962E-001 -4.1117350144E+001  +9.5807302856E-001 -4.1184787746E+001  +3.1381051199E-002 -4.3611591245E+001 
25307700000.000 +3.7011022830E-002 -4.2216769878E+001  +9.5776573426E-001 -4.1553959766E+001  +9.5783182865E-001 -4.1626857385E+001  +3.1706174663E-002 -4.4244981733E+001 
25582675000.000 +3.6451156472E-002 -4.2785651805E+001  +9.5701289439E-001 -4.2006885913E+001  +9.5771243410E-001 -4.2085318532E+001  +3.1303143861E-002 -4.3823786387E+001 
25857650000.000 +3.6441346612E-002 -4.3673663261E+001  +9.5645945889E-001 -4.2459823717E+001  +9.5777889566E-001 -4.2530907405E+001  +3.1463281077E-002 -4.3101261044E+001 
26132625000.000 +3.6400290426E-002 -4.3619641257E+001  +9.5616704746E-001 -4.2918865020E+001  +9.5696126520E-001 -4.2935145104E+001  +3.1384223003E-002 -4.4129005259E+001 
26407600000.000 +3.6222083865E-002 -4.3029500910E+001  +9.5617314698E-001 -4.3362852423E+001  +9.5697922190E-001 -4.3391851317E+001  +3.1268429022E-002 -4.4098951213E+001 
26682575000.000 +3.6220211740E-002 -4.3645050910E+001  +9.5556376749E-001 -4.3782891852E+001  +9.5706372754E-001 -4.3828793131E+001  +3.1312672115E-002 -4.3490052175E+001 
26957550000.000 +3.6151539098E-002 -4.3787825128E+001  +9.5548698167E-001 -4.4202266145E+001  +9.5679157853E-001 -4.4284327380E+001  +3.1619718156E-002 -4.4180773779E+001 
27232525000.000 +3.6475995184E-002 -4.3428538698E+001  +9.5513491881E-001 -4.4602244711E+001  +9.5627102275E-001 -4.4722598694E+001  +3.1665801564E-002 -4.4561907790E+001 
27507500000.000 +3.6608288972E-002 -4.3350834234E+001  +9.5520893677E-001 -4.5035170534E+001  +9.5629941708E-001 -4.5157405314E+001  +3.1242092141E-002 -4.4921324010E+001 
27782475000.000 +3.6990417528E-002 -4.4319278610E+001  +9.5553981071E-001 -4.5558418104E+001  +9.5617636880E-001 -4.5631302811E+001  +3.1005847192E-002 -4.5127575323E+001 
28057450000.000 +3.6901917732E-002 -4.4114812045E+001  +9.5518678346E-001 -4.5936246194E+001  +9.5565412096E-001 -4.6093577191E+001  +3.1165118367E-002 -4.5208062843E+001 
28332425000.000 +3.6676677097E-002 -4.4492429700E+001  +9.5516621023E-001 -4.6436409626E+001  +9.5587817702E-001 -4.6519205247E+001  +3.1086227845E-002 -4.5158558624E+001 
28607400000.000 +3.7265912478E-002 -4.4362256202E+001  +9.5493688489E-001 -4.6930999429E+001  +9.5522338191E-001 -4.6984189829E+001  +3.1023157295E-002 -4.6518890888E+001 
28882375000.000 +3.7395905618E-002 -4.5138551618E+001  +9.5459910533E-001 -4.7310667775E+001  +9.5485162228E-001 -4.7458051110E+001  +3.1036347156E-002 -4.6611200590E+001 
29157350000.000 +3.6793201149E-002 -4.4539421783E+001  +9.5432197497E-001 -4.7755215175E+001  +9.5438197288E-001 -4.7893998086E+001  +3.0941536484E-002 -4.5345227448E+001 
29432325000.000 +3.6959470777E-002 -4.4564983348E+001  +9.5385373829E-001 -4.8208874427E+001  +9.5428663493E-001 -4.8339361036E+001  +3.0903549432E-002 -4.5585184257E+001 
29707300000.000 +3.7079845528E-002 -4.4665996836E+001  +9.5370354836E-001 -4.8661463026E+001  +9.5375615362E-001 -4.8777213881E+001  +3.0878440688E-002 -4.5643789043E+001 
29982275000.000 +3.7576604250E-002 -4.5372045079E+001  +9.5339990413E-001 -4.9089050381E+001  +9.5374747524E-001 -4.9203134480E+001  +3.1226010262E-002 -4.5130180047E+001 
30257250000.000 +3.7073617880E-002 -4.5746647463E+001  +9.5323587864E-001 -4.9568246751E+001  +9.5307676010E-001 -4.9659174575E+001  +3.0732551246E-002 -4.4805551392E+001 
30532225000.000 +3.7305157174E-002 -4.5057467844E+001  +9.5262414387E-001 -4.9942126124E+001  +9.5308831460E-001 -5.0123198674E+001  +3.0950021646E-002 -4.4929471395E+001 
30807200000.000 +3.6972157666E-002 -4.5799132503E+001  +9.5265349977E-001 -5.0410406979E+001  +9.5293648444E-001 -5.0543512437E+001  +3.0798165322E-002 -4.5439797339E+001 
31082175000.000 +3.7830488334E-002 -4.5190041398E+001  +9.5209148134E-001 -5.0885179934E+001  +9.5265228179E-001 -5.0950498120E+001  +3.0737847386E-002 -4.4357467070E+001 
