!  2-Port S-parameters saved by WinCal
! VAR MeasName=S-Parameters (CALIBRATED_DATA) read from VNA (E8361A)
! VAR MeasDate=2015/02/20 19:02:24
! VAR NAME=20150220_TRL_LINE_300um_1
! VAR FILENAME=20150220_TRL_LINE_300um_1.S2P
! VAR DATE=2015/02/20 19:02:24
! VAR PHYS_PORTS=1,2
!
# Hz S MA R 50
10000000.000 +8.5737149362E-003 -1.1488800270E+002  +9.9985428076E-001 +5.6779127948E-002  +9.8734372609E-001 +1.4350704612E-001  +4.4150327401E-003 +1.0080129988E+002 
284975000.000 +6.1383971832E-003 +5.1895961389E+000  +9.9229663594E-001 -1.9355871258E-001  +9.9240240402E-001 -2.5235302842E-001  +5.9706822333E-003 +7.0603018966E-001 
559950000.000 +6.7529680643E-003 +3.1551404896E+000  +9.9226299820E-001 -4.9990819503E-001  +9.9267765242E-001 -6.1307219658E-001  +6.6184904545E-003 +1.4598152686E+000 
834925000.000 +7.3511788172E-003 +1.1479285355E+000  +9.9171735575E-001 -7.8793668980E-001  +9.9203289056E-001 -8.2994824145E-001  +6.6769222176E-003 +2.5702957710E+000 
1109900000.000 +7.4478782948E-003 -8.5213018750E-001  +9.9163671271E-001 -1.1315414451E+000  +9.9166345582E-001 -1.0579243836E+000  +7.3297481944E-003 +1.5353905378E+000 
1384875000.000 +7.7556503087E-003 -7.6259656147E-001  +9.9132863057E-001 -1.4023695478E+000  +9.9139481112E-001 -1.3322074452E+000  +7.6608293455E-003 +9.2172584137E-001 
1659850000.000 +8.3066945808E-003 -2.0299675423E+000  +9.9097128253E-001 -1.6484069958E+000  +9.9119269334E-001 -1.6589278923E+000  +8.2190358604E-003 -2.2644575193E+000 
1934825000.000 +8.5444487754E-003 -6.0613428071E+000  +9.9073989085E-001 -1.8941394008E+000  +9.9086727562E-001 -1.9281399480E+000  +8.4507623227E-003 -4.5496265341E+000 
2209800000.000 +8.8742431746E-003 -8.6928962377E+000  +9.9052485224E-001 -2.1386425289E+000  +9.9065825286E-001 -2.2386174621E+000  +8.7495976440E-003 -7.1407852250E+000 
2484775000.000 +9.0928822772E-003 -9.7629485905E+000  +9.9023747698E-001 -2.4311142477E+000  +9.9027505995E-001 -2.4429529147E+000  +9.1235189268E-003 -1.0259057147E+001 
2759750000.000 +9.4005410486E-003 -1.2069811189E+001  +9.8993816241E-001 -2.6752779688E+000  +9.8988113255E-001 -2.6954722248E+000  +9.3670597832E-003 -1.1273918257E+001 
3034725000.000 +9.7296515979E-003 -1.4171832558E+001  +9.8982369237E-001 -2.9369255966E+000  +9.8982312313E-001 -2.9847817125E+000  +9.7028639322E-003 -1.4100571121E+001 
3309700000.000 +9.9916449381E-003 -1.6696021073E+001  +9.8948953810E-001 -3.1965991081E+000  +9.8951490838E-001 -3.2050042797E+000  +1.0029599441E-002 -1.6826716441E+001 
3584675000.000 +1.0329275096E-002 -1.8860739665E+001  +9.8943598739E-001 -3.4398341566E+000  +9.8924346591E-001 -3.4898073586E+000  +1.0419370536E-002 -1.8900685254E+001 
3859650000.000 +1.0792746697E-002 -2.0704820889E+001  +9.8912533769E-001 -3.6956962930E+000  +9.8896667588E-001 -3.7394551577E+000  +1.0663815858E-002 -2.0998333863E+001 
4134625000.000 +1.1170027193E-002 -2.2609940243E+001  +9.8892402138E-001 -3.9542989161E+000  +9.8876506399E-001 -3.9679728721E+000  +1.1045517276E-002 -2.2341259180E+001 
4409600000.000 +1.1608685514E-002 -2.4893271681E+001  +9.8879270459E-001 -4.2121559196E+000  +9.8833164584E-001 -4.2408782167E+000  +1.1470232457E-002 -2.5082811663E+001 
4684575000.000 +1.2057565823E-002 -2.6966110841E+001  +9.8868643576E-001 -4.4743241764E+000  +9.8802781565E-001 -4.4091116418E+000  +1.1756470521E-002 -2.6955389495E+001 
4959550000.000 +1.2412796717E-002 -2.7892834702E+001  +9.8834597072E-001 -4.7210385933E+000  +9.8791866984E-001 -4.6939293242E+000  +1.2204273429E-002 -2.9498613858E+001 
5234525000.000 +1.2667755691E-002 -3.1238500504E+001  +9.8826427162E-001 -5.0068947933E+000  +9.8741752562E-001 -4.8760055028E+000  +1.2648645033E-002 -3.1342227864E+001 
5509500000.000 +1.2825084849E-002 -3.0959027851E+001  +9.8795890883E-001 -5.2129551489E+000  +9.8686080248E-001 -5.1067943744E+000  +1.2790975196E-002 -3.3314561049E+001 
5784475000.000 +1.3264934578E-002 -3.2526100388E+001  +9.8765147630E-001 -5.4655461316E+000  +9.8716153877E-001 -5.2752451848E+000  +1.2848557291E-002 -3.4417288146E+001 
6059450000.000 +1.3822547485E-002 -3.3967567959E+001  +9.8766980572E-001 -5.7173366528E+000  +9.8865990599E-001 -5.3783474111E+000  +1.3593345470E-002 -3.6349963393E+001 
6334425000.000 +1.3415202060E-002 -3.6661885676E+001  +9.8731931077E-001 -5.9652348381E+000  +9.9415093679E-001 -5.6636521707E+000  +1.4463136480E-002 -3.8063827324E+001 
6609400000.000 +1.5179775815E-002 -3.0875446853E+001  +9.8726979869E-001 -6.2138322388E+000  +9.9859774519E-001 -6.1817696053E+000  +1.4415884506E-002 -3.8751121567E+001 
6884375000.000 +1.4828632819E-002 -4.0211954393E+001  +9.8716353766E-001 -6.4718821704E+000  +9.9503100437E-001 -6.8808393458E+000  +1.4013500296E-002 -4.1371831486E+001 
7159350000.000 +1.5991732348E-002 -3.9535430058E+001  +9.8669810332E-001 -6.7054508524E+000  +9.8873786577E-001 -7.1981061474E+000  +1.5223243281E-002 -4.0662187788E+001 
7434325000.000 +1.5491314739E-002 -4.1925708087E+001  +9.8672390320E-001 -6.9535402093E+000  +9.8541437665E-001 -7.2738143190E+000  +1.5651236761E-002 -4.4346276418E+001 
7709300000.000 +1.6775418002E-002 -4.2621806099E+001  +9.8641893071E-001 -7.2125519850E+000  +9.8456924712E-001 -7.4934417137E+000  +1.5774350926E-002 -4.4558906261E+001 
7984275000.000 +1.6624299633E-002 -4.6506632093E+001  +9.8636254937E-001 -7.4644922537E+000  +9.8424063374E-001 -7.5974685562E+000  +1.6390688808E-002 -4.6739981189E+001 
8259250000.000 +1.6879894950E-002 -4.5838182243E+001  +9.8613501157E-001 -7.7173944625E+000  +9.8450679419E-001 -7.8306271468E+000  +1.7074231073E-002 -4.7665947242E+001 
8534225000.000 +1.7836002914E-002 -4.7991954970E+001  +9.8593161351E-001 -7.9610281904E+000  +9.8449426241E-001 -8.0086909576E+000  +1.6949082084E-002 -4.9316466008E+001 
8809200000.000 +1.8050802346E-002 -4.9459308123E+001  +9.8569108778E-001 -8.2197075517E+000  +9.8467313798E-001 -8.2776306887E+000  +1.7511613255E-002 -5.0805690957E+001 
9084175000.000 +1.8615129287E-002 -5.0452155745E+001  +9.8571956309E-001 -8.4619067475E+000  +9.8475655449E-001 -8.5137683904E+000  +1.7954879164E-002 -5.1194520540E+001 
9359150000.000 +1.9035819244E-002 -5.1492396508E+001  +9.8540596972E-001 -8.6979948618E+000  +9.8452296442E-001 -8.7508219149E+000  +1.8312214489E-002 -5.2144383204E+001 
9634125000.000 +1.9488297205E-002 -5.2581676102E+001  +9.8527669453E-001 -8.9349068978E+000  +9.8459393944E-001 -9.0050988837E+000  +1.9003876887E-002 -5.3146461701E+001 
9909100000.000 +2.0095751439E-002 -5.3642899107E+001  +9.8500759558E-001 -9.1707689672E+000  +9.8446185602E-001 -9.2446962560E+000  +1.9328036871E-002 -5.4737398288E+001 
10184075000.000 +2.0410534777E-002 -5.4553048551E+001  +9.8488123926E-001 -9.4277613819E+000  +9.8440565946E-001 -9.4897380704E+000  +1.9705134713E-002 -5.5571515422E+001 
10459050000.000 +2.1187732117E-002 -5.5975270683E+001  +9.8448339829E-001 -9.6999255571E+000  +9.8405241095E-001 -9.7303545172E+000  +2.0211979621E-002 -5.7123306589E+001 
10734025000.000 +2.1219457539E-002 -5.6103725678E+001  +9.8438145294E-001 -9.8839269670E+000  +9.8416704021E-001 -9.9850408643E+000  +2.0646603558E-002 -5.7738014393E+001 
11009000000.000 +2.1961018620E-002 -5.7313851432E+001  +9.8419985327E-001 -1.0161213695E+001  +9.8397450539E-001 -1.0213521142E+001  +2.1226533571E-002 -5.9267529837E+001 
11283975000.000 +2.2266751148E-002 -5.8371932250E+001  +9.8418075691E-001 -1.0413031112E+001  +9.8402082747E-001 -1.0500286871E+001  +2.1477751581E-002 -5.9850766582E+001 
11558950000.000 +2.2759329850E-002 -5.9544825093E+001  +9.8416637771E-001 -1.0660320973E+001  +9.8381756401E-001 -1.0706625193E+001  +2.1960142052E-002 -6.1139111411E+001 
11833925000.000 +2.3232850467E-002 -6.0455572541E+001  +9.8389775772E-001 -1.0898760869E+001  +9.8379063966E-001 -1.0951680399E+001  +2.2403556665E-002 -6.2401961125E+001 
12108900000.000 +2.3686532175E-002 -6.1027996710E+001  +9.8374851883E-001 -1.1157177848E+001  +9.8378067601E-001 -1.1191003411E+001  +2.2718307560E-002 -6.2899698900E+001 
12383875000.000 +2.4219769273E-002 -6.2113252891E+001  +9.8350669413E-001 -1.1396656016E+001  +9.8359941696E-001 -1.1446869560E+001  +2.3286895480E-002 -6.4244203365E+001 
12658850000.000 +2.4548347533E-002 -6.3032723261E+001  +9.8314783825E-001 -1.1666011592E+001  +9.8367830706E-001 -1.1692250733E+001  +2.3586196407E-002 -6.4657134796E+001 
12933825000.000 +2.5028257992E-002 -6.3661322314E+001  +9.8207051482E-001 -1.1920361378E+001  +9.8367677966E-001 -1.1930182150E+001  +2.3939327292E-002 -6.5311081331E+001 
13208800000.000 +2.5333557535E-002 -6.3865448935E+001  +9.8035236879E-001 -1.2125870633E+001  +9.8345636372E-001 -1.2184293601E+001  +2.5164710525E-002 -6.7103868565E+001 
13483775000.000 +2.4965233843E-002 -6.2780212192E+001  +9.8177323679E-001 -1.1873437044E+001  +9.8338990035E-001 -1.2425450778E+001  +2.2276548605E-002 -6.6181653310E+001 
13758750000.000 +2.6373833291E-002 -6.6367434283E+001  +9.8778592003E-001 -1.2544585804E+001  +9.8322180685E-001 -1.2686851672E+001  +2.6137682131E-002 -6.9353679699E+001 
14033725000.000 +2.6745839693E-002 -6.7068420827E+001  +9.8528924458E-001 -1.2870291726E+001  +9.8297894465E-001 -1.2940003901E+001  +2.5206359368E-002 -6.7456644612E+001 
14308700000.000 +2.7362016786E-002 -6.6526765719E+001  +9.8386616376E-001 -1.3143049559E+001  +9.8293717531E-001 -1.3187751318E+001  +2.6590629006E-002 -6.8883086492E+001 
14583675000.000 +2.8011577379E-002 -6.8296547284E+001  +9.8300862265E-001 -1.3307925921E+001  +9.8267741249E-001 -1.3446203128E+001  +2.6770306413E-002 -6.9959218699E+001 
14858650000.000 +2.8359895460E-002 -6.8774373922E+001  +9.8293129069E-001 -1.3631136329E+001  +9.8254886380E-001 -1.3683345699E+001  +2.7342462579E-002 -7.0646810037E+001 
15133625000.000 +2.8593586786E-002 -6.9306947555E+001  +9.8287974370E-001 -1.3890218607E+001  +9.8257505750E-001 -1.3923590461E+001  +2.7745675534E-002 -7.1809565015E+001 
15408600000.000 +2.9230370747E-002 -6.9798342587E+001  +9.8254875989E-001 -1.4122354431E+001  +9.8265598233E-001 -1.4171816698E+001  +2.8083381886E-002 -7.2419837004E+001 
15683575000.000 +2.9617036349E-002 -7.0546721019E+001  +9.8256065693E-001 -1.4338015979E+001  +9.8253655050E-001 -1.4418920326E+001  +2.8535179711E-002 -7.3048618332E+001 
15958550000.000 +2.9978022367E-002 -7.1044617307E+001  +9.8235872583E-001 -1.4587533802E+001  +9.8229432841E-001 -1.4665960763E+001  +2.9000718613E-002 -7.4140884422E+001 
16233525000.000 +3.0274924408E-002 -7.1668638076E+001  +9.8224824726E-001 -1.4826988676E+001  +9.8227001381E-001 -1.4911747766E+001  +2.9193815184E-002 -7.4305210682E+001 
16508500000.000 +3.0620964994E-002 -7.2132625732E+001  +9.8213201511E-001 -1.5028734320E+001  +9.8207759749E-001 -1.5164790306E+001  +2.9766160977E-002 -7.4607569123E+001 
16783475000.000 +3.1290951444E-002 -7.2541066828E+001  +9.8206477838E-001 -1.5366159673E+001  +9.8205197796E-001 -1.5411722567E+001  +3.0089582856E-002 -7.5360421319E+001 
17058450000.000 +3.1843839879E-002 -7.2911648373E+001  +9.8215632093E-001 -1.5577525921E+001  +9.8172200194E-001 -1.5662278845E+001  +3.0433866423E-002 -7.5692649556E+001 
17333425000.000 +3.2141749447E-002 -7.3838409728E+001  +9.8172093157E-001 -1.5831206479E+001  +9.8184074854E-001 -1.5909468147E+001  +3.0966697107E-002 -7.6485163009E+001 
17608400000.000 +3.2648249486E-002 -7.3927457030E+001  +9.8180722732E-001 -1.6122718291E+001  +9.8149899389E-001 -1.6164391242E+001  +3.1397638702E-002 -7.6910271260E+001 
17883375000.000 +3.3189327715E-002 -7.4551195712E+001  +9.8154081078E-001 -1.6268072425E+001  +9.8166460256E-001 -1.6401805617E+001  +3.2077392052E-002 -7.7278001815E+001 
18158350000.000 +3.3804122911E-002 -7.5004381535E+001  +9.8130478415E-001 -1.6560368915E+001  +9.8138589352E-001 -1.6657572353E+001  +3.2431271116E-002 -7.8208376687E+001 
18433325000.000 +3.4317692705E-002 -7.6017977427E+001  +9.8139072493E-001 -1.6817515152E+001  +9.8108061200E-001 -1.6904675498E+001  +3.2807753947E-002 -7.9042930746E+001 
18708300000.000 +3.4636889948E-002 -7.6445774993E+001  +9.8099413787E-001 -1.7040138849E+001  +9.8114659006E-001 -1.7156164249E+001  +3.3185198783E-002 -7.9517545972E+001 
18983275000.000 +3.5065192068E-002 -7.6968354383E+001  +9.8107288883E-001 -1.7324043413E+001  +9.8092101571E-001 -1.7409406631E+001  +3.3756192532E-002 -8.0117661541E+001 
19258250000.000 +3.5733739423E-002 -7.7394898766E+001  +9.8085171996E-001 -1.7536032788E+001  +9.8062533113E-001 -1.7639085856E+001  +3.4338827622E-002 -8.1114805508E+001 
19533225000.000 +3.5912750238E-002 -7.7782604955E+001  +9.8085069237E-001 -1.7783522029E+001  +9.8053956690E-001 -1.7880828202E+001  +3.4552767612E-002 -8.1410157855E+001 
19808200000.000 +3.6353647689E-002 -7.8299752500E+001  +9.8062597174E-001 -1.8046205790E+001  +9.8063763941E-001 -1.8124745715E+001  +3.5128649337E-002 -8.1925034955E+001 
20083175000.000 +3.6479849363E-002 -7.8803204282E+001  +9.8040239672E-001 -1.8221366715E+001  +9.8045800984E-001 -1.8374029661E+001  +3.5313237258E-002 -8.2481730491E+001 
20358150000.000 +3.7066159784E-002 -7.8697741846E+001  +9.8037262479E-001 -1.8489257266E+001  +9.8029276785E-001 -1.8620122494E+001  +3.5774531791E-002 -8.2784543966E+001 
20633125000.000 +3.7358393168E-002 -7.9933636093E+001  +9.8040565143E-001 -1.8776107819E+001  +9.8028904286E-001 -1.8861757776E+001  +3.6157979787E-002 -8.4137047796E+001 
20908100000.000 +3.7602472436E-002 -7.9984329058E+001  +9.8003290902E-001 -1.8992581483E+001  +9.8010836904E-001 -1.9108312761E+001  +3.6070973828E-002 -8.4045783906E+001 
21183075000.000 +3.8391741124E-002 -8.0141261047E+001  +9.8018584430E-001 -1.9294139117E+001  +9.8016254955E-001 -1.9362491862E+001  +3.6730420452E-002 -8.4286305847E+001 
21458050000.000 +3.8909665894E-002 -8.0496953878E+001  +9.8011734234E-001 -1.9524000825E+001  +9.7996263005E-001 -1.9605751509E+001  +3.7144242067E-002 -8.5063797315E+001 
21733025000.000 +3.9325934370E-002 -8.1186410949E+001  +9.7994924987E-001 -1.9780500836E+001  +9.7997895820E-001 -1.9858921907E+001  +3.7572167617E-002 -8.5869723963E+001 
22008000000.000 +4.0069547712E-002 -8.1337353977E+001  +9.7960132183E-001 -2.0029367959E+001  +9.7953961043E-001 -2.0108314753E+001  +3.8043485111E-002 -8.6338180571E+001 
22282975000.000 +4.0675182387E-002 -8.2113711364E+001  +9.7956814273E-001 -2.0331064455E+001  +9.7948134100E-001 -2.0362816193E+001  +3.8198426023E-002 -8.6619802519E+001 
22557950000.000 +4.0969225596E-002 -8.2842756262E+001  +9.7933029744E-001 -2.0513243282E+001  +9.7922349107E-001 -2.0608155233E+001  +3.8849236684E-002 -8.7059198220E+001 
22832925000.000 +4.1346823808E-002 -8.2968867771E+001  +9.7883892127E-001 -2.0735282369E+001  +9.7898117429E-001 -2.0862572820E+001  +3.9082580323E-002 -8.7474584841E+001 
23107900000.000 +4.1984560403E-002 -8.3410104593E+001  +9.7888276797E-001 -2.0978755297E+001  +9.7875006147E-001 -2.1103016276E+001  +3.9634047553E-002 -8.7670976240E+001 
23382875000.000 +4.2285282836E-002 -8.3910605586E+001  +9.7876591256E-001 -2.1285106831E+001  +9.7851824750E-001 -2.1345789526E+001  +3.9718844412E-002 -8.8205811706E+001 
23657850000.000 +4.2638240126E-002 -8.4349487814E+001  +9.7856404525E-001 -2.1517820344E+001  +9.7862801106E-001 -2.1574210078E+001  +4.0296302638E-002 -8.7963903369E+001 
23932825000.000 +4.3174162630E-002 -8.5306816289E+001  +9.7839790507E-001 -2.1688213835E+001  +9.7828388866E-001 -2.1817182247E+001  +4.1110800448E-002 -8.8941417631E+001 
24207800000.000 +4.3540888550E-002 -8.4482769427E+001  +9.7838817365E-001 -2.2020338066E+001  +9.7874580111E-001 -2.2077179033E+001  +4.1060397044E-002 -8.8713027691E+001 
24482775000.000 +4.3802817730E-002 -8.4937285214E+001  +9.8017463498E-001 -2.2184806456E+001  +9.7811006237E-001 -2.2348836012E+001  +4.2404686137E-002 -8.9304651140E+001 
24757750000.000 +4.4218676605E-002 -8.5589053434E+001  +9.7908013411E-001 -2.2463758578E+001  +9.7796303939E-001 -2.2592983962E+001  +4.2310334086E-002 -9.0079101642E+001 
25032725000.000 +4.4717403387E-002 -8.6047767647E+001  +9.7794406769E-001 -2.2716069847E+001  +9.7793235117E-001 -2.2824979991E+001  +4.2255487059E-002 -9.1033690400E+001 
25307700000.000 +4.4971587499E-002 -8.6233159430E+001  +9.7667804992E-001 -2.2966077760E+001  +9.7790028117E-001 -2.3073594642E+001  +4.2966955013E-002 -9.1132288963E+001 
25582675000.000 +4.5529508558E-002 -8.6687359083E+001  +9.7680992857E-001 -2.3261770001E+001  +9.7727637006E-001 -2.3334885571E+001  +4.3032264696E-002 -9.2622129772E+001 
25857650000.000 +4.6569985854E-002 -8.7828712886E+001  +9.7585671142E-001 -2.3466435668E+001  +9.7753103657E-001 -2.3555361987E+001  +4.3493519921E-002 -9.2068657536E+001 
26132625000.000 +4.6374218012E-002 -8.8025740424E+001  +9.7597101608E-001 -2.3720061722E+001  +9.7704751599E-001 -2.3824157807E+001  +4.4251370819E-002 -9.2802313835E+001 
26407600000.000 +4.6543697298E-002 -8.8572117660E+001  +9.7560721169E-001 -2.3956745387E+001  +9.7719731741E-001 -2.4052483066E+001  +4.3951690571E-002 -9.3479263511E+001 
26682575000.000 +4.7219625446E-002 -8.8530505170E+001  +9.7526212686E-001 -2.4205983980E+001  +9.7669086720E-001 -2.4300128496E+001  +4.4423857122E-002 -9.3041088997E+001 
26957550000.000 +4.7412838137E-002 -8.9723850169E+001  +9.7569089534E-001 -2.4446162264E+001  +9.7675522460E-001 -2.4530298657E+001  +4.4972996751E-002 -9.3224752341E+001 
27232525000.000 +4.7315979696E-002 -8.9801029692E+001  +9.7560251510E-001 -2.4682508441E+001  +9.7655566249E-001 -2.4799291933E+001  +4.5410025014E-002 -9.3977116983E+001 
27507500000.000 +4.7848866777E-002 -8.9767915856E+001  +9.7567003594E-001 -2.4913937184E+001  +9.7661335120E-001 -2.5030580832E+001  +4.5788141841E-002 -9.4532394091E+001 
27782475000.000 +4.8224273058E-002 -8.9883568022E+001  +9.7516588596E-001 -2.5162855959E+001  +9.7618247157E-001 -2.5300288372E+001  +4.6297760647E-002 -9.5512378072E+001 
28057450000.000 +4.8961210254E-002 -9.0053832017E+001  +9.7551110771E-001 -2.5382970358E+001  +9.7636296992E-001 -2.5581935333E+001  +4.6459545173E-002 -9.5440791367E+001 
28332425000.000 +4.9263441661E-002 -9.0802911280E+001  +9.7500558266E-001 -2.5644440215E+001  +9.7587080916E-001 -2.5787171162E+001  +4.7173393824E-002 -9.6523850769E+001 
28607400000.000 +4.9897776267E-002 -9.0558494023E+001  +9.7523142363E-001 -2.5911934285E+001  +9.7594042962E-001 -2.6061176916E+001  +4.7776134156E-002 -9.7360267543E+001 
28882375000.000 +5.0339227488E-002 -9.1148458850E+001  +9.7540350967E-001 -2.6167977833E+001  +9.7577523054E-001 -2.6320172829E+001  +4.7548440801E-002 -9.6731349724E+001 
29157350000.000 +5.0907902653E-002 -9.2482207010E+001  +9.7484471413E-001 -2.6379384320E+001  +9.7539910999E-001 -2.6595515320E+001  +4.8658300848E-002 -9.7617623357E+001 
29432325000.000 +5.0910897134E-002 -9.2502940144E+001  +9.7452921870E-001 -2.6643426593E+001  +9.7525452279E-001 -2.6818687606E+001  +4.8616218383E-002 -9.8041250240E+001 
29707300000.000 +5.1210976548E-002 -9.3071404300E+001  +9.7418924420E-001 -2.6917400123E+001  +9.7496078329E-001 -2.7068122102E+001  +4.9003844134E-002 -9.7959551712E+001 
29982275000.000 +5.1989654496E-002 -9.3127781043E+001  +9.7453496919E-001 -2.7170984832E+001  +9.7434081919E-001 -2.7286032809E+001  +4.9312366002E-002 -9.8484359340E+001 
30257250000.000 +5.1880730154E-002 -9.3485513957E+001  +9.7398874163E-001 -2.7404243201E+001  +9.7468413769E-001 -2.7564190839E+001  +4.9169575593E-002 -9.9259402467E+001 
30532225000.000 +5.2534377602E-002 -9.3588746526E+001  +9.7360320164E-001 -2.7611888206E+001  +9.7398113496E-001 -2.7785818802E+001  +5.0070333725E-002 -9.8902633790E+001 
30807200000.000 +5.2545308737E-002 -9.3839122199E+001  +9.7338773295E-001 -2.7862235437E+001  +9.7417847635E-001 -2.8032329495E+001  +5.0079897398E-002 -9.9923311975E+001 
31082175000.000 +5.3152282580E-002 -9.4391565073E+001  +9.7380319259E-001 -2.8171720092E+001  +9.7384267879E-001 -2.8257274071E+001  +5.0262788033E-002 -9.9574797750E+001 
